! Synthetic resonant dipole S11
! Generated for examples/python/touchstone_workflow.ipynb
! Closed-form series-RLC model: Z = R + jR*Q*(f/f0 - f0/f)
! Parameters: R = 60 ohm, Q = 5, f0 = 1.5 GHz, Z0 = 50 ohm
! Resulting |S11| dips to ~ -20.8 dB near 1.5 GHz, ~ -1 dB at band edges.
# Hz S MA R 50
1.0000e+09   0.916047   -21.4589
1.0500e+09   0.894191   -24.0951
1.1000e+09   0.865589   -27.1606
1.1500e+09   0.827766   -30.7442
1.2000e+09   0.777359   -34.9373
1.2500e+09   0.710023   -39.8056
1.3000e+09   0.620745   -45.3106
1.3500e+09   0.505146   -51.0959
1.4000e+09   0.362577   -55.7920
1.4500e+09   0.202651   -53.3461
1.5000e+09   0.090909    0.0000
1.5500e+09   0.197525   52.9184
1.6000e+09   0.343145   56.1237
1.6500e+09   0.468801   52.5916
1.7000e+09   0.569802   48.0434
1.7500e+09   0.648782   43.6838
1.8000e+09   0.710023   39.8056
1.8500e+09   0.757611   36.4408
1.9000e+09   0.794881   33.5423
1.9500e+09   0.824385   31.0440
2.0000e+09   0.848018   28.8818
